南自线路保护PSL603,78,1999
22,15A,7D
1,1-Ia,A,,A,0.001740,0.000000,0.000000,-32767,32767,1.00,1.00,S
2,2-Ib,B,,A,0.001740,0.000000,0.000000,-32767,32767,1.00,1.00,S
3,3-Ic,C,,A,0.001740,0.000000,0.000000,-32767,32767,1.00,1.00,S
4,4-3I0,N,,A,0.001740,0.000000,0.000000,-32767,32767,1.00,1.00,S
5,5-Ua,A,,V,0.003052,0.000000,0.000000,-32767,32767,1.00,1.00,S
6,6-Ub,B,,V,0.003052,0.000000,0.000000,-32767,32767,1.00,1.00,S
7,7-Uc,C,,V,0.003052,0.000000,0.000000,-32767,32767,1.00,1.00,S
8,8-3U0,N,,V,0.012207,0.000000,0.000000,-32767,32767,1.00,1.00,S
9,9-AI,N,, ,1.000000,0.000000,0.000000,-32767,32767,1.00,1.00,S
10,10-AI,N,, ,1.000000,0.000000,0.000000,-32767,32767,1.00,1.00,S
11,11-AI,N,, ,1.000000,0.000000,0.000000,-32767,32767,1.00,1.00,S
12,12-AI,N,, ,1.000000,0.000000,0.000000,-32767,32767,1.00,1.00,S
13,13-AI,N,, ,1.000000,0.000000,0.000000,-32767,32767,1.00,1.00,S
14,14-AI,N,, ,1.000000,0.000000,0.000000,-32767,32767,1.00,1.00,S
15,15-AI,N,, ,1.000000,0.000000,0.000000,-32767,32767,1.00,1.00,S
1,1-A相跳闸,,,0
2,2-B相跳闸,,,0
3,3-C相跳闸,,,0
4,4-永跳,,,0
5,5-两组开关Ａ相跳位,,,0
6,6-两组开关B相跳位,,,0
7,7-两组开关C相跳位,,,0
50
10
1000,200
1000,400
1000,600
1000,800
1000,950
1000,950
1000,950
1000,950
1000,950
1000,950
24/12/2012,17:30:48.384000
24/12/2012,17:30:48.384000
ASCII
1
1,0,000571,000010,000037,000013,000031,000015,000033,000020,000000,000000,000000,000000,000000,000000,000000,0,0,0,0,0,0,0
2,1000,000207,000008,000034,000014,000031,000015,000031,000019,999999,999999,999999,999999,999999,999999,999999,0,0,0,0,0,0,0
3,2000,-000170,000010,000036,000013,000031,000016,000033,000020,999999,999999,999999,999999,999999,999999,999999,0,0,0,0,0,0,0
4,3000,-000532,000009,000041,000015,000033,000015,000035,000021,999999,999999,999999,999999,999999,999999,999999,0,0,0,0,0,0,0
5,4000,-000836,000009,000036,000013,000033,000017,000033,000021,999999,999999,999999,999999,999999,999999,999999,0,0,0,0,0,0,0
6,5000,-001057,000009,000035,000013,000034,000016,000033,000021,999999,999999,999999,999999,999999,999999,999999,0,0,0,0,0,0,0
7,6000,-001172,000008,000037,000013,000039,000017,000035,000023,999999,999999,999999,999999,999999,999999,999999,0,0,0,0,0,0,0
8,7000,-001168,000009,000035,000013,000037,000014,000031,000020,999999,999999,999999,999999,999999,999999,999999,0,0,0,0,0,0,0
9,8000,-001052,000002,000035,000012,000039,000013,000031,000021,999999,999999,999999,999999,999999,999999,999999,0,0,0,0,0,0,0
10,9000,-000823,000008,000037,000013,000040,000013,000030,000021,999999,999999,999999,999999,999999,999999,999999,0,0,0,0,0,0,0
11,10000,-000512,000010,000037,000014,000040,000011,000029,000020,999999,999999,999999,999999,999999,999999,999999,0,0,0,0,0,0,0
12,11000,-000152,000008,000037,000016,000040,000011,000029,000020,999999,999999,999999,999999,999999,999999,999999,0,0,0,0,0,0,0
13,12000,000227,000010,000037,000014,000041,000010,000029,000020,999999,999999,999999,999999,999999,999999,999999,0,0,0,0,0,0,0
14,13000,000592,000010,000036,000013,000040,000010,000027,000019,999999,999999,999999,999999,999999,999999,999999,0,0,0,0,0,0,0
15,14000,000896,000010,000035,000014,000039,000010,000026,000019,999999,999999,999999,999999,999999,999999,999999,0,0,0,0,0,0,0
16,15000,001115,000010,000037,000013,000035,000011,000025,000018,999999,999999,999999,999999,999999,999999,999999,0,0,0,0,0,0,0
17,16000,001229,000009,000037,000015,000035,000011,000028,000018,999999,999999,999999,999999,999999,999999,999999,0,0,0,0,0,0,0
18,17000,001225,000008,000037,000014,000033,000012,000028,000018,999999,999999,999999,999999,999999,999999,999999,0,0,0,0,0,0,0
19,18000,001106,000009,000033,000009,000032,000013,000029,000018,999999,999999,999999,999999,999999,999999,999999,0,0,0,0,0,0,0
20,19000,000879,000010,000037,000013,000031,000014,000031,000019,999999,999999,999999,999999,999999,999999,999999,0,0,0,0,0,0,0
21,20000,000573,000010,000037,000014,000032,000015,000032,000020,999999,999999,999999,999999,999999,999999,999999,0,0,0,0,0,0,0
22,21000,000209,000008,000036,000014,000031,000015,000034,000020,999999,999999,999999,999999,999999,999999,999999,0,0,0,0,0,0,0
23,22000,-000170,000008,000036,000013,000031,000015,000036,000020,999999,999999,999999,999999,999999,999999,999999,0,0,0,0,0,0,0
24,23000,-000533,000008,000036,000014,000034,000017,000033,000021,999999,999999,999999,999999,999999,999999,999999,0,0,0,0,0,0,0
25,24000,-000835,000011,000035,000013,000035,000017,000033,000021,999999,999999,999999,999999,999999,999999,999999,0,0,0,0,0,0,0
26,25000,-001057,000008,000035,000013,000035,000014,000032,000020,999999,999999,999999,999999,999999,999999,999999,0,0,0,0,0,0,0
27,26000,-001171,000009,000035,000011,000035,000015,000032,000020,999999,999999,999999,999999,999999,999999,999999,0,0,0,0,0,0,0
28,27000,-001168,000009,000035,000014,000041,000017,000031,000022,999999,999999,999999,999999,999999,999999,999999,0,0,0,0,0,0,0
29,28000,-001047,000008,000035,000013,000040,000013,000031,000021,999999,999999,999999,999999,999999,999999,999999,0,0,0,0,0,0,0
30,29000,-000821,000009,000036,000012,000040,000012,000029,000020,999999,999999,999999,999999,999999,999999,999999,0,0,0,0,0,0,0
31,30000,-000513,000009,000036,000014,000041,000013,000026,000020,999999,999999,999999,999999,999999,999999,999999,0,0,0,0,0,0,0
32,31000,-000154,000008,000035,000011,000040,000011,000028,000020,999999,999999,999999,999999,999999,999999,999999,0,0,0,0,0,0,0
33,32000,000229,000010,000037,000014,000040,000011,000029,000020,999999,999999,999999,999999,999999,999999,999999,0,0,0,0,0,0,0
34,33000,000590,000010,000037,000014,000038,000011,000027,000019,999999,999999,999999,999999,999999,999999,999999,0,0,0,0,0,0,0
35,34000,000897,000009,000037,000014,000037,000010,000027,000018,999999,999999,999999,999999,999999,999999,999999,0,0,0,0,0,0,0
36,35000,001116,000011,000037,000014,000037,000011,000029,000019,999999,999999,999999,999999,999999,999999,999999,0,0,0,0,0,0,0
37,36000,001230,000010,000037,000012,000035,000011,000030,000019,999999,999999,999999,999999,999999,999999,999999,0,0,0,0,0,0,0
38,37000,001226,000009,000036,000014,000033,000012,000031,000019,999999,999999,999999,999999,999999,999999,999999,0,0,0,0,0,0,0
39,38000,001106,000009,000037,000014,000033,000013,000031,000019,999999,999999,999999,999999,999999,999999,999999,0,0,0,0,0,0,0
40,39000,000886,000013,000038,000013,000033,000014,000030,000019,999999,999999,999999,999999,999999,999999,999999,0,0,0,0,0,0,0
41,40000,000570,000009,000036,000013,000031,000015,000031,000019,999999,999999,999999,999999,999999,999999,999999,0,0,0,0,0,0,0
42,41000,000209,000008,000037,000014,000032,000015,000031,000019,999999,999999,999999,999999,999999,999999,999999,0,0,0,0,0,0,0
43,42000,-000171,000009,000035,000014,000031,000014,000033,000019,999999,999999,999999,999999,999999,999999,999999,0,0,0,0,0,0,0
44,43000,-000531,000008,000035,000013,000029,000013,000032,000018,999999,999999,999999,999999,999999,999999,999999,0,0,0,0,0,0,0
45,44000,-000836,000009,000035,000014,000033,000015,000033,000020,999999,999999,999999,999999,999999,999999,999999,0,0,0,0,0,0,0
46,45000,-001056,000009,000036,000013,000034,000014,000033,000020,999999,999999,999999,999999,999999,999999,999999,0,0,0,0,0,0,0
47,46000,-001173,000010,000036,000014,000037,000015,000033,000021,999999,999999,999999,999999,999999,999999,999999,0,0,0,0,0,0,0
48,47000,-001168,000009,000036,000013,000038,000015,000031,000021,999999,999999,999999,999999,999999,999999,999999,0,0,0,0,0,0,0
49,48000,-001048,000010,000041,000018,000038,000014,000031,000021,999999,999999,999999,999999,999999,999999,999999,0,0,0,0,0,0,0
50,49000,-000823,000008,000035,000013,000039,000013,000029,000020,999999,999999,999999,999999,999999,999999,999999,0,0,0,0,0,0,0
51,50000,-000514,000006,000036,000014,000040,000012,000029,000020,999999,999999,999999,999999,999999,999999,999999,0,0,0,0,0,0,0
52,51000,-000152,000010,000037,000014,000042,000014,000029,000021,999999,999999,999999,999999,999999,999999,999999,0,0,0,0,0,0,0
53,52000,000229,000010,000036,000014,000041,000011,000028,000020,999999,999999,999999,999999,999999,999999,999999,0,0,0,0,0,0,0
54,53000,000593,000011,000037,000014,000039,000011,000028,000019,999999,999999,999999,999999,999999,999999,999999,0,0,0,0,0,0,0
55,54000,000896,000010,000037,000014,000037,000013,000027,000019,999999,999999,999999,999999,999999,999999,999999,0,0,0,0,0,0,0
56,55000,001116,000010,000037,000012,000037,000010,000028,000019,999999,999999,999999,999999,999999,999999,999999,0,0,0,0,0,0,0
57,56000,001230,000009,000037,000013,000034,000010,000028,000018,999999,999999,999999,999999,999999,999999,999999,0,0,0,0,0,0,0
58,57000,001227,000009,000037,000014,000033,000011,000029,000018,999999,999999,999999,999999,999999,999999,999999,0,0,0,0,0,0,0
59,58000,001107,000008,000036,000014,000036,000016,000029,000020,999999,999999,999999,999999,999999,999999,999999,0,0,0,0,0,0,0
60,59000,000881,000010,000037,000014,000031,000014,000031,000019,999999,999999,999999,999999,999999,999999,999999,0,0,0,0,0,0,0
61,60000,000570,000009,000036,000014,000031,000015,000030,000019,999999,999999,999999,999999,999999,999999,999999,0,0,0,0,0,0,0
62,61000,000209,000009,000036,000013,000031,000015,000031,000019,999999,999999,999999,999999,999999,999999,999999,0,0,0,0,0,0,0
63,62000,-000170,000008,000035,000014,000031,000015,000032,000019,999999,999999,999999,999999,999999,999999,999999,0,0,0,0,0,0,0
64,63000,-000532,000009,000035,000013,000033,000017,000032,000020,999999,999999,999999,999999,999999,999999,999999,0,0,0,0,0,0,0
65,64000,-000836,000009,000035,000013,000034,000015,000034,000021,999999,999999,999999,999999,999999,999999,999999,0,0,0,0,0,0,0
66,65000,-001057,000009,000036,000013,000035,000016,000033,000021,999999,999999,999999,999999,999999,999999,999999,0,0,0,0,0,0,0
67,66000,-001172,000007,000036,000013,000039,000015,000031,000021,999999,999999,999999,999999,999999,999999,999999,0,0,0,0,0,0,0
68,67000,-001169,000006,000036,000014,000037,000014,000034,000021,999999,999999,999999,999999,999999,999999,999999,0,0,0,0,0,0,0
69,68000,-001048,000007,000036,000014,000038,000013,000031,000020,999999,999999,999999,999999,999999,999999,999999,0,0,0,0,0,0,0
70,69000,-000823,000009,000037,000014,000040,000014,000029,000021,999999,999999,999999,999999,999999,999999,999999,0,0,0,0,0,0,0
71,70000,-000514,000009,000035,000014,000039,000012,000029,000020,999999,999999,999999,999999,999999,999999,999999,0,0,0,0,0,0,0
72,71000,-000152,000009,000036,000014,000042,000011,000028,000020,999999,999999,999999,999999,999999,999999,999999,0,0,0,0,0,0,0
73,72000,000229,000010,000037,000014,000036,000007,000028,000018,999999,999999,999999,999999,999999,999999,999999,0,0,0,0,0,0,0
74,73000,000590,000009,000035,000013,000039,000011,000027,000019,999999,999999,999999,999999,999999,999999,999999,0,0,0,0,0,0,0
75,74000,000894,000009,000035,000015,000038,000010,000027,000019,999999,999999,999999,999999,999999,999999,999999,0,0,0,0,0,0,0
76,75000,001115,000009,000036,000013,000037,000011,000026,000018,999999,999999,999999,999999,999999,999999,999999,0,0,0,0,0,0,0
77,76000,001230,000010,000036,000014,000036,000011,000029,000019,999999,999999,999999,999999,999999,999999,999999,0,0,0,0,0,0,0
78,77000,001227,000009,000036,000011,000033,000012,000027,000018,999999,999999,999999,999999,999999,999999,999999,0,0,0,0,0,0,0
79,78000,001106,000010,000036,000014,000033,000013,000030,000019,999999,999999,999999,999999,999999,999999,999999,0,0,0,0,0,0,0
80,79000,000881,000010,000036,000012,000031,000013,000031,000019,999999,999999,999999,999999,999999,999999,999999,0,0,0,0,0,0,0
81,80000,000570,000011,000037,000013,000031,000015,000031,000019,999999,999999,999999,999999,999999,999999,999999,0,0,0,0,0,0,0
82,81000,000208,000008,000036,000013,000030,000014,000031,000019,999999,999999,999999,999999,999999,999999,999999,0,0,0,0,0,0,0
83,82000,-000169,000009,000035,000013,000031,000016,000028,000019,999999,999999,999999,999999,999999,999999,999999,0,0,0,0,0,0,0
84,83000,-000533,000007,000036,000014,000033,000016,000033,000020,999999,999999,999999,999999,999999,999999,999999,0,0,0,0,0,0,0
85,84000,-000836,000008,000037,000014,000034,000017,000033,000021,999999,999999,999999,999999,999999,999999,999999,0,0,0,0,0,0,0
86,85000,-001056,000009,000034,000015,000036,000015,000033,000021,999999,999999,999999,999999,999999,999999,999999,0,0,0,0,0,0,0
87,86000,-001171,000010,000035,000013,000034,000015,000033,000020,999999,999999,999999,999999,999999,999999,999999,0,0,0,0,0,0,0
88,87000,-001168,000008,000035,000014,000037,000015,000031,000021,999999,999999,999999,999999,999999,999999,999999,0,0,0,0,0,0,0
89,88000,-001047,000009,000036,000013,000039,000013,000029,000020,999999,999999,999999,999999,999999,999999,999999,0,0,0,0,0,0,0
90,89000,-000822,000009,000036,000014,000039,000013,000030,000020,999999,999999,999999,999999,999999,999999,999999,0,0,0,0,0,0,0
91,90000,-000514,000006,000037,000014,000040,000011,000029,000020,999999,999999,999999,999999,999999,999999,999999,0,0,0,0,0,0,0
92,91000,-000152,000010,000033,000012,000040,000009,000028,000019,999999,999999,999999,999999,999999,999999,999999,0,0,0,0,0,0,0
93,92000,000229,000010,000036,000014,000040,000010,000028,000019,999999,999999,999999,999999,999999,999999,999999,0,0,0,0,0,0,0
94,93000,000588,000010,000037,000013,000037,000011,000027,000019,999999,999999,999999,999999,999999,999999,999999,0,0,0,0,0,0,0
95,94000,000895,000010,000037,000014,000035,000009,000025,000017,999999,999999,999999,999999,999999,999999,999999,0,0,0,0,0,0,0
96,95000,001116,000009,000037,000014,000037,000010,000025,000018,999999,999999,999999,999999,999999,999999,999999,0,0,0,0,0,0,0
97,96000,001229,000009,000037,000014,000033,000013,000027,000018,999999,999999,999999,999999,999999,999999,999999,0,0,0,0,0,0,0
98,97000,001227,000009,000037,000014,000033,000011,000029,000018,999999,999999,999999,999999,999999,999999,999999,0,0,0,0,0,0,0
99,98000,001106,000010,000037,000013,000033,000014,000029,000019,999999,999999,999999,999999,999999,999999,999999,0,0,0,0,0,0,0
100,99000,000880,000009,000038,000012,000031,000013,000029,000018,999999,999999,999999,999999,999999,999999,999999,0,0,0,0,0,0,0
101,100000,000571,000008,000035,000013,000029,000013,000031,000018,999999,999999,999999,999999,999999,999999,999999,0,0,0,0,0,0,0
102,101000,000211,000008,000037,000014,000032,000015,000033,000020,999999,999999,999999,999999,999999,999999,999999,0,0,0,0,0,0,0
103,102000,-000171,000007,000037,000015,000031,000015,000033,000020,999999,999999,999999,999999,999999,999999,999999,0,0,0,0,0,0,0
104,103000,-000531,000009,000035,000014,000033,000016,000033,000020,999999,999999,999999,999999,999999,999999,999999,0,0,0,0,0,0,0
105,104000,-000838,000009,000035,000015,000034,000015,000032,000020,999999,999999,999999,999999,999999,999999,999999,0,0,0,0,0,0,0
106,105000,-001056,000010,000036,000014,000035,000016,000033,000021,999999,999999,999999,999999,999999,999999,999999,0,0,0,0,0,0,0
107,106000,-001171,000010,000036,000013,000037,000015,000033,000021,999999,999999,999999,999999,999999,999999,999999,0,0,0,0,0,0,0
108,107000,-001168,000009,000035,000013,000037,000015,000031,000021,999999,999999,999999,999999,999999,999999,999999,0,0,0,0,0,0,0
109,108000,-001048,000008,000035,000014,000038,000014,000029,000020,999999,999999,999999,999999,999999,999999,999999,0,0,0,0,0,0,0
110,109000,-000823,000008,000037,000011,000040,000013,000031,000021,999999,999999,999999,999999,999999,999999,999999,0,0,0,0,0,0,0
111,110000,-000511,000010,000036,000014,000040,000012,000027,000020,999999,999999,999999,999999,999999,999999,999999,0,0,0,0,0,0,0
112,111000,-000152,000009,000037,000013,000040,000011,000027,000019,999999,999999,999999,999999,999999,999999,999999,0,0,0,0,0,0,0
113,112000,000228,000010,000035,000013,000041,000011,000028,000020,999999,999999,999999,999999,999999,999999,999999,0,0,0,0,0,0,0
114,113000,000589,000011,000033,000013,000037,000009,000028,000018,999999,999999,999999,999999,999999,999999,999999,0,0,0,0,0,0,0
115,114000,000895,000009,000037,000013,000037,000010,000029,000019,999999,999999,999999,999999,999999,999999,999999,0,0,0,0,0,0,0
116,115000,001116,000010,000036,000012,000035,000011,000027,000018,999999,999999,999999,999999,999999,999999,999999,0,0,0,0,0,0,0
117,116000,001230,000010,000038,000011,000035,000011,000028,000018,999999,999999,999999,999999,999999,999999,999999,0,0,0,0,0,0,0
118,117000,001226,000010,000037,000014,000033,000012,000028,000018,999999,999999,999999,999999,999999,999999,999999,0,0,0,0,0,0,0
119,118000,001107,000010,000038,000013,000031,000013,000028,000018,999999,999999,999999,999999,999999,999999,999999,0,0,0,0,0,0,0
120,119000,000881,000009,000036,000011,000031,000014,000031,000019,999999,999999,999999,999999,999999,999999,999999,0,0,0,0,0,0,0
121,120000,000573,000010,000032,000008,000031,000015,000030,000019,999999,999999,999999,999999,999999,999999,999999,0,0,0,0,0,0,0
122,121000,000209,000009,000036,000013,000032,000015,000031,000019,999999,999999,999999,999999,999999,999999,999999,0,0,0,0,0,0,0
123,122000,-000171,000009,000036,000014,000032,000015,000032,000020,999999,999999,999999,999999,999999,999999,999999,0,0,0,0,0,0,0
124,123000,-000531,000008,000035,000014,000029,000015,000033,000019,999999,999999,999999,999999,999999,999999,999999,0,0,0,0,0,0,0
125,124000,-000836,000009,000035,000013,000033,000016,000034,000021,999999,999999,999999,999999,999999,999999,999999,0,0,0,0,0,0,0
126,125000,-001060,000005,000036,000014,000035,000018,000033,000021,999999,999999,999999,999999,999999,999999,999999,0,0,0,0,0,0,0
127,126000,-001172,000009,000036,000013,000037,000015,000031,000021,999999,999999,999999,999999,999999,999999,999999,0,0,0,0,0,0,0
128,127000,-001168,000009,000036,000012,000039,000014,000031,000021,999999,999999,999999,999999,999999,999999,999999,0,0,0,0,0,0,0
129,128000,-001048,000009,000037,000013,000037,000011,000031,000020,999999,999999,999999,999999,999999,999999,999999,0,0,0,0,0,0,0
130,129000,-000822,000009,000035,000014,000040,000012,000029,000020,999999,999999,999999,999999,999999,999999,999999,0,0,0,0,0,0,0
131,130000,-000513,000010,000036,000014,000041,000011,000030,000020,999999,999999,999999,999999,999999,999999,999999,0,0,0,0,0,0,0
132,131000,-000154,000009,000036,000013,000040,000011,000028,000020,999999,999999,999999,999999,999999,999999,999999,0,0,0,0,0,0,0
133,132000,000227,000009,000035,000013,000041,000010,000027,000019,999999,999999,999999,999999,999999,999999,999999,0,0,0,0,0,0,0
134,133000,000591,000010,000038,000015,000039,000011,000027,000019,999999,999999,999999,999999,999999,999999,999999,0,0,0,0,0,0,0
135,134000,000895,000009,000038,000014,000038,000011,000026,000019,999999,999999,999999,999999,999999,999999,999999,0,0,0,0,0,0,0
136,135000,001116,000009,000037,000014,000037,000010,000027,000018,999999,999999,999999,999999,999999,999999,999999,0,0,0,0,0,0,0
137,136000,001231,000009,000037,000014,000033,000010,000028,000018,999999,999999,999999,999999,999999,999999,999999,0,0,0,0,0,0,0
138,137000,001226,000007,000037,000013,000034,000012,000027,000018,999999,999999,999999,999999,999999,999999,999999,0,0,0,0,0,0,0
139,138000,001105,000008,000037,000014,000031,000014,000029,000018,999999,999999,999999,999999,999999,999999,999999,0,0,0,0,0,0,0
140,139000,000877,000006,000036,000014,000031,000012,000030,000018,999999,999999,999999,999999,999999,999999,999999,0,0,0,0,0,0,0
141,140000,000573,000009,000037,000014,000032,000015,000031,000019,999999,999999,999999,999999,999999,999999,999999,0,0,0,0,0,0,0
142,141000,000209,000009,000035,000012,000029,000015,000031,000019,999999,999999,999999,999999,999999,999999,999999,0,0,0,0,0,0,0
143,142000,-000171,000008,000035,000013,000029,000015,000032,000019,999999,999999,999999,999999,999999,999999,999999,0,0,0,0,0,0,0
144,143000,-000531,000008,000037,000014,000028,000010,000031,000017,999999,999999,999999,999999,999999,999999,999999,0,0,0,0,0,0,0
145,144000,-000837,000008,000036,000014,000034,000015,000034,000021,999999,999999,999999,999999,999999,999999,999999,0,0,0,0,0,0,0
